T7CAC 000:000.506   SEGGER J-Link V8.44a Log File
T7CAC 000:000.648   DLL Compiled: Jun 18 2025 16:28:32
T7CAC 000:000.655   Logging started @ 2025-07-29 02:10
T7CAC 000:000.662   Process: C:\Users\20537\.eclipse\com.renesas.platform_2070713661\DebugComp\RA\e2-server-gdb.exe
T7CAC 000:000.673 - 0.667ms 
T7CAC 000:000.687 JLINK_GetDLLVersion()
T7CAC 000:000.694 - 0.007ms returns 84401
T7CAC 000:003.310 JLINK_OpenEx(...)
T7CAC 000:021.358   Firmware: J-Link OB-RA4M2-Full compiled Apr  1 2025 10:14:06
T7CAC 000:022.810   Firmware: J-Link OB-RA4M2-Full compiled Apr  1 2025 10:14:06
T7CAC 000:035.870   Hardware: V1.00
T7CAC 000:035.890   S/N: 24060501
T7CAC 000:035.898   OEM: SEGGER
T7CAC 000:035.906   Feature(s): GDB, FlashDL, FlashBP, JFlash, RDI
T7CAC 000:037.317   Bootloader: 2021 May 14
T7CAC 000:038.243   USB speed mode: Full speed (12 MBit/s)
T7CAC 000:038.808   TELNET listener socket opened on port 19021
T7CAC 000:038.957   WEBSRV WEBSRV_Init(): Starting webserver thread(s)
T7CAC 000:039.112   WEBSRV Webserver running on local port 19080
T7CAC 000:039.238   Looking for J-Link GUI Server exe at: C:\Users\20537\.eclipse\com.renesas.platform_2070713661\DebugComp\RA\ARM\Segger_v8.44.1\JLinkGUIServer.exe
T7CAC 000:039.367   Looking for J-Link GUI Server exe at: C:\Program Files\SEGGER\JLink_V810h\JLinkGUIServer.exe
T7CAC 000:039.409   Forking J-Link GUI Server: C:\Program Files\SEGGER\JLink_V810h\JLinkGUIServer.exe
T7CAC 000:073.970   J-Link GUI Server info: "J-Link GUI server V8.10h "
T7CAC 000:081.727 - 78.410ms returns "O.K."
T7CAC 000:082.276 JLINK_TIF_Select(JLINKARM_TIF_SWD)
T7CAC 000:083.873 - 1.597ms returns 0x00
T7CAC 000:083.901 JLINK_ClrRESET()
T7CAC 000:084.610 - 0.708ms 
T7CAC 000:135.566 JLINK_SetSpeed(1500)
T7CAC 000:135.866 - 0.306ms 
T7CAC 000:135.881 JLINK_CORESIGHT_Configure(PerformTIFInit=0)
T7CAC 000:136.503 - 0.622ms returns 0
T7CAC 000:136.524 JLINK_CORESIGHT_ReadAPDPReg(DP reg 0x00)
T7CAC 000:137.179   Value=0x6BA02477
T7CAC 000:137.191 - 0.669ms returns 0
T7CAC 000:137.204 JLINK_CORESIGHT_WriteAPDPReg(DP reg 0x00, 0x0000001F)
T7CAC 000:137.691 - 0.486ms returns 0
T7CAC 000:137.772 JLINK_CORESIGHT_ReadAPDPReg(DP reg 0x00)
T7CAC 000:138.213   Value=0x6BA02477
T7CAC 000:138.228 - 0.456ms returns 0
T7CAC 000:138.239 JLINK_CORESIGHT_WriteAPDPReg(DP reg 0x02, 0x00000000)
T7CAC 000:138.742 - 0.503ms returns 0
T7CAC 000:138.759 JLINK_CORESIGHT_WriteAPDPReg(DP reg 0x01, 0x50000000)
T7CAC 000:139.224 - 0.464ms returns 0
T7CAC 000:139.245 JLINK_CORESIGHT_ReadAPDPReg(DP reg 0x01)
T7CAC 000:139.719   Value=0xF0000040
T7CAC 000:139.732 - 0.487ms returns 0
T7CAC 000:139.746 JLINK_CORESIGHT_WriteAPDPReg(DP reg 0x00, 0x0000001F)
T7CAC 000:140.191 - 0.444ms returns 0
T7CAC 000:140.206 JLINK_CORESIGHT_ReadAPDPReg(DP reg 0x00)
T7CAC 000:140.759   Value=0x6BA02477
T7CAC 000:140.778 - 0.571ms returns 0
T7CAC 000:140.788 JLINK_CORESIGHT_WriteAPDPReg(DP reg 0x01, 0x54000000)
T7CAC 000:141.237 - 0.449ms returns 0
T7CAC 000:141.252 JLINK_CORESIGHT_WriteAPDPReg(DP reg 0x01, 0x50000F00)
T7CAC 000:141.701 - 0.448ms returns 0
T7CAC 000:141.715 JLINK_CORESIGHT_WriteAPDPReg(DP reg 0x02, 0x01000000)
T7CAC 000:142.221 - 0.505ms returns 0
T7CAC 000:142.236 JLINK_CORESIGHT_WriteAPDPReg(AP reg 0x00, 0x80000002)
T7CAC 000:142.778 - 0.542ms returns 0
T7CAC 000:142.792 JLINK_CORESIGHT_WriteAPDPReg(AP reg 0x01, 0x80011100)
T7CAC 000:143.261 - 0.468ms returns 0
T7CAC 000:143.275 JLINK_CORESIGHT_WriteAPDPReg(AP reg 0x03, 0x000000A5)
T7CAC 000:143.794 - 0.519ms returns 0
T7CAC 000:143.809 JLINK_CORESIGHT_WriteAPDPReg(AP reg 0x00, 0x80000002)
T7CAC 000:144.270 - 0.460ms returns 0
T7CAC 000:144.285 JLINK_CORESIGHT_WriteAPDPReg(AP reg 0x01, 0x80011100)
T7CAC 000:144.890 - 0.605ms returns 0
T7CAC 000:144.905 JLINK_CORESIGHT_ReadAPDPReg(AP reg 0x03)
T7CAC 000:145.396   Value=0x000000A5
T7CAC 000:145.410 - 0.505ms returns 0
T7CAC 000:145.421 JLINK_ClrTMS()
T7CAC 000:145.662 - 0.240ms 
T7CAC 000:151.509 JLINK_SetTCK()
T7CAC 000:151.817 - 0.325ms returns 0
T7CAC 000:157.498 JLINK_SetRESET()
T7CAC 000:157.840 - 0.341ms 
T7CAC 000:358.492 JLINK_CORESIGHT_WriteAPDPReg(AP reg 0x00, 0x80000002)
T7CAC 000:358.942 - 0.451ms returns 0
T7CAC 000:358.957 JLINK_CORESIGHT_WriteAPDPReg(AP reg 0x01, 0x80011100)
T7CAC 000:359.419 - 0.462ms returns 0
T7CAC 000:359.433 JLINK_CORESIGHT_ReadAPDPReg(AP reg 0x03)
T7CAC 000:359.870   Value=0x00000000
T7CAC 000:359.882 - 0.449ms returns 0
T7CAC 000:359.893 JLINK_CORESIGHT_WriteAPDPReg(AP reg 0x00, 0x80000002)
T7CAC 000:360.360 - 0.468ms returns 0
T7CAC 000:360.373 JLINK_CORESIGHT_WriteAPDPReg(AP reg 0x01, 0x80011140)
T7CAC 000:360.837 - 0.464ms returns 0
T7CAC 000:360.852 JLINK_CORESIGHT_ReadAPDPReg(AP reg 0x03)
T7CAC 000:361.337   Value=0x00000002
T7CAC 000:361.349 - 0.497ms returns 0
T7CAC 000:361.359 JLINK_CORESIGHT_WriteAPDPReg(AP reg 0x00, 0x80000002)
T7CAC 000:361.805 - 0.446ms returns 0
T7CAC 000:361.822 JLINK_CORESIGHT_WriteAPDPReg(AP reg 0x01, 0x80011120)
T7CAC 000:362.271 - 0.449ms returns 0
T7CAC 000:362.285 JLINK_CORESIGHT_WriteAPDPReg(AP reg 0x03, 0x00000055)
T7CAC 000:362.727 - 0.442ms returns 0
T7CAC 000:362.747 JLINK_CORESIGHT_WriteAPDPReg(AP reg 0x00, 0x80000002)
T7CAC 000:363.236 - 0.488ms returns 0
T7CAC 000:363.253 JLINK_CORESIGHT_WriteAPDPReg(AP reg 0x01, 0x80011140)
T7CAC 000:363.761 - 0.508ms returns 0
T7CAC 000:363.817 JLINK_CORESIGHT_ReadAPDPReg(AP reg 0x03)
T7CAC 000:364.238   Value=0x00000002
T7CAC 000:364.250 - 0.433ms returns 0
T7CAC 000:364.259 JLINK_CORESIGHT_ReadAPDPReg(AP reg 0x03)
T7CAC 000:364.771   Value=0x00000002
T7CAC 000:364.784 - 0.524ms returns 0
T7CAC 000:364.793 JLINK_CORESIGHT_ReadAPDPReg(AP reg 0x03)
T7CAC 000:365.282   Value=0x00000002
T7CAC 000:365.294 - 0.501ms returns 0
T7CAC 000:365.304 JLINK_CORESIGHT_ReadAPDPReg(AP reg 0x03)
T7CAC 000:365.775   Value=0x00000002
T7CAC 000:365.790 - 0.486ms returns 0
T7CAC 000:365.800 JLINK_CORESIGHT_ReadAPDPReg(AP reg 0x03)
T7CAC 000:366.321   Value=0x00000002
T7CAC 000:366.335 - 0.534ms returns 0
T7CAC 000:366.345 JLINK_CORESIGHT_ReadAPDPReg(AP reg 0x03)
T7CAC 000:366.851   Value=0x00000002
T7CAC 000:366.864 - 0.518ms returns 0
T7CAC 000:366.874 JLINK_CORESIGHT_ReadAPDPReg(AP reg 0x03)
T7CAC 000:367.321   Value=0x00000002
T7CAC 000:367.333 - 0.459ms returns 0
T7CAC 000:367.342 JLINK_CORESIGHT_ReadAPDPReg(AP reg 0x03)
T7CAC 000:367.827   Value=0x00000002
T7CAC 000:367.839 - 0.497ms returns 0
T7CAC 000:367.848 JLINK_CORESIGHT_ReadAPDPReg(AP reg 0x03)
T7CAC 000:368.316   Value=0x00000002
T7CAC 000:368.328 - 0.479ms returns 0
T7CAC 000:368.337 JLINK_CORESIGHT_ReadAPDPReg(AP reg 0x03)
T7CAC 000:368.828   Value=0x00000002
T7CAC 000:368.840 - 0.502ms returns 0
T7CAC 000:368.849 JLINK_CORESIGHT_ReadAPDPReg(AP reg 0x03)
T7CAC 000:369.317   Value=0x00000002
T7CAC 000:369.329 - 0.479ms returns 0
T7CAC 000:369.338 JLINK_CORESIGHT_ReadAPDPReg(AP reg 0x03)
T7CAC 000:369.797   Value=0x00000002
T7CAC 000:369.812 - 0.474ms returns 0
T7CAC 000:369.822 JLINK_CORESIGHT_ReadAPDPReg(AP reg 0x03)
T7CAC 000:370.304   Value=0x00000002
T7CAC 000:370.317 - 0.494ms returns 0
T7CAC 000:370.326 JLINK_CORESIGHT_ReadAPDPReg(AP reg 0x03)
T7CAC 000:370.816   Value=0x00000002
T7CAC 000:370.828 - 0.501ms returns 0
T7CAC 000:370.837 JLINK_CORESIGHT_ReadAPDPReg(AP reg 0x03)
T7CAC 000:371.814   Value=0x00000002
T7CAC 000:371.826 - 0.989ms returns 0
T7CAC 000:371.836 JLINK_CORESIGHT_ReadAPDPReg(AP reg 0x03)
T7CAC 000:372.280   Value=0x00000002
T7CAC 000:372.292 - 0.456ms returns 0
T7CAC 000:372.301 JLINK_CORESIGHT_ReadAPDPReg(AP reg 0x03)
T7CAC 000:372.796   Value=0x00000002
T7CAC 000:372.808 - 0.507ms returns 0
T7CAC 000:372.818 JLINK_CORESIGHT_ReadAPDPReg(AP reg 0x03)
T7CAC 000:373.327   Value=0x00000002
T7CAC 000:373.340 - 0.522ms returns 0
T7CAC 000:373.351 JLINK_CORESIGHT_ReadAPDPReg(AP reg 0x03)
T7CAC 000:373.901   Value=0x00000002
T7CAC 000:373.915 - 0.564ms returns 0
T7CAC 000:373.926 JLINK_CORESIGHT_ReadAPDPReg(AP reg 0x03)
T7CAC 000:374.429   Value=0x00000000
T7CAC 000:374.441 - 0.515ms returns 0
T7CAC 000:374.451 JLINK_CORESIGHT_WriteAPDPReg(AP reg 0x00, 0x80000002)
T7CAC 000:374.860 - 0.409ms returns 0
T7CAC 000:374.876 JLINK_CORESIGHT_WriteAPDPReg(AP reg 0x01, 0x80011130)
T7CAC 000:375.303 - 0.426ms returns 0
T7CAC 000:375.317 JLINK_CORESIGHT_ReadAPDPReg(AP reg 0x03)
T7CAC 000:375.745   Value=0x000000C6
T7CAC 000:375.759 - 0.442ms returns 0
T7CAC 000:375.775 JLINK_CORESIGHT_WriteAPDPReg(AP reg 0x00, 0x80000002)
T7CAC 000:376.174 - 0.399ms returns 0
T7CAC 000:376.187 JLINK_CORESIGHT_WriteAPDPReg(AP reg 0x01, 0x80011140)
T7CAC 000:376.567 - 0.380ms returns 0
T7CAC 000:376.582 JLINK_CORESIGHT_ReadAPDPReg(AP reg 0x03)
T7CAC 000:377.050   Value=0x00000002
T7CAC 000:377.062 - 0.480ms returns 0
T7CAC 000:377.072 JLINK_CORESIGHT_WriteAPDPReg(AP reg 0x00, 0x80000002)
T7CAC 000:377.463 - 0.391ms returns 0
T7CAC 000:377.496 JLINK_CORESIGHT_WriteAPDPReg(AP reg 0x01, 0x80011120)
T7CAC 000:377.939 - 0.443ms returns 0
T7CAC 000:377.952 JLINK_CORESIGHT_WriteAPDPReg(AP reg 0x03, 0x3A010001)
T7CAC 000:378.545 - 0.592ms returns 0
T7CAC 000:378.562 JLINK_CORESIGHT_WriteAPDPReg(AP reg 0x00, 0x80000002)
T7CAC 000:379.052 - 0.490ms returns 0
T7CAC 000:379.066 JLINK_CORESIGHT_WriteAPDPReg(AP reg 0x01, 0x80011140)
T7CAC 000:379.511 - 0.444ms returns 0
T7CAC 000:379.525 JLINK_CORESIGHT_ReadAPDPReg(AP reg 0x03)
T7CAC 000:380.046   Value=0x00000002
T7CAC 000:380.061 - 0.535ms returns 0
T7CAC 000:380.071 JLINK_CORESIGHT_WriteAPDPReg(AP reg 0x00, 0x80000002)
T7CAC 000:380.522 - 0.451ms returns 0
T7CAC 000:380.535 JLINK_CORESIGHT_WriteAPDPReg(AP reg 0x01, 0x80011120)
T7CAC 000:381.046 - 0.510ms returns 0
T7CAC 000:381.061 JLINK_CORESIGHT_WriteAPDPReg(AP reg 0x03, 0x000003C5)
T7CAC 000:381.466 - 0.405ms returns 0
T7CAC 000:381.480 JLINK_CORESIGHT_WriteAPDPReg(AP reg 0x00, 0x80000002)
T7CAC 000:381.907 - 0.427ms returns 0
T7CAC 000:381.922 JLINK_CORESIGHT_WriteAPDPReg(AP reg 0x01, 0x80011140)
T7CAC 000:382.369 - 0.447ms returns 0
T7CAC 000:382.384 JLINK_CORESIGHT_ReadAPDPReg(AP reg 0x03)
T7CAC 000:382.873   Value=0x00000000
T7CAC 000:382.889 - 0.504ms returns 0
T7CAC 000:382.901 JLINK_CORESIGHT_WriteAPDPReg(AP reg 0x00, 0x80000002)
T7CAC 000:383.350 - 0.449ms returns 0
T7CAC 000:383.365 JLINK_CORESIGHT_WriteAPDPReg(AP reg 0x01, 0x80011130)
T7CAC 000:383.838 - 0.473ms returns 0
T7CAC 000:383.852 JLINK_CORESIGHT_ReadAPDPReg(AP reg 0x03)
T7CAC 000:384.362   Value=0x3A2A0081
T7CAC 000:384.374 - 0.522ms returns 0
T7CAC 000:384.384 JLINK_CORESIGHT_WriteAPDPReg(AP reg 0x00, 0x80000002)
T7CAC 000:384.781 - 0.397ms returns 0
T7CAC 000:384.796 JLINK_CORESIGHT_WriteAPDPReg(AP reg 0x01, 0x80011140)
T7CAC 000:385.222 - 0.425ms returns 0
T7CAC 000:385.235 JLINK_CORESIGHT_ReadAPDPReg(AP reg 0x03)
T7CAC 000:385.773   Value=0x00000000
T7CAC 000:385.785 - 0.549ms returns 0
T7CAC 000:385.795 JLINK_CORESIGHT_WriteAPDPReg(AP reg 0x00, 0x80000002)
T7CAC 000:386.232 - 0.437ms returns 0
T7CAC 000:386.245 JLINK_CORESIGHT_WriteAPDPReg(AP reg 0x01, 0x80011130)
T7CAC 000:386.741 - 0.496ms returns 0
T7CAC 000:386.758 JLINK_CORESIGHT_ReadAPDPReg(AP reg 0x03)
T7CAC 000:387.225   Value=0x808D5B00
T7CAC 000:387.238 - 0.480ms returns 0
T7CAC 000:387.249 JLINK_CORESIGHT_WriteAPDPReg(AP reg 0x00, 0x80000002)
T7CAC 000:387.703 - 0.454ms returns 0
T7CAC 000:387.717 JLINK_CORESIGHT_WriteAPDPReg(AP reg 0x01, 0x80011140)
T7CAC 000:388.175 - 0.458ms returns 0
T7CAC 000:388.189 JLINK_CORESIGHT_ReadAPDPReg(AP reg 0x03)
T7CAC 000:388.697   Value=0x00000000
T7CAC 000:388.711 - 0.521ms returns 0
T7CAC 000:388.725 JLINK_CORESIGHT_WriteAPDPReg(AP reg 0x00, 0x80000002)
T7CAC 000:389.171 - 0.445ms returns 0
T7CAC 000:389.188 JLINK_CORESIGHT_WriteAPDPReg(AP reg 0x01, 0x80011130)
T7CAC 000:389.645 - 0.456ms returns 0
T7CAC 000:389.661 JLINK_CORESIGHT_ReadAPDPReg(AP reg 0x03)
T7CAC 000:390.223   Value=0x0306070A
T7CAC 000:390.236 - 0.575ms returns 0
T7CAC 000:390.248 JLINK_CORESIGHT_WriteAPDPReg(AP reg 0x00, 0x80000002)
T7CAC 000:390.717 - 0.468ms returns 0
T7CAC 000:390.734 JLINK_CORESIGHT_WriteAPDPReg(AP reg 0x01, 0x80011140)
T7CAC 000:391.177 - 0.442ms returns 0
T7CAC 000:391.198 JLINK_CORESIGHT_ReadAPDPReg(AP reg 0x03)
T7CAC 000:391.654   Value=0x00000000
T7CAC 000:391.668 - 0.470ms returns 0
T7CAC 000:391.681 JLINK_CORESIGHT_WriteAPDPReg(AP reg 0x00, 0x80000002)
T7CAC 000:392.085 - 0.404ms returns 0
T7CAC 000:392.102 JLINK_CORESIGHT_WriteAPDPReg(AP reg 0x01, 0x80011130)
T7CAC 000:392.509 - 0.407ms returns 0
T7CAC 000:392.525 JLINK_CORESIGHT_ReadAPDPReg(AP reg 0x03)
T7CAC 000:392.968   Value=0x30545408
T7CAC 000:392.982 - 0.456ms returns 0
T7CAC 000:392.995 JLINK_CORESIGHT_WriteAPDPReg(AP reg 0x00, 0x80000002)
T7CAC 000:393.395 - 0.399ms returns 0
T7CAC 000:393.411 JLINK_CORESIGHT_WriteAPDPReg(AP reg 0x01, 0x80011140)
T7CAC 000:393.830 - 0.419ms returns 0
T7CAC 000:393.847 JLINK_CORESIGHT_ReadAPDPReg(AP reg 0x03)
T7CAC 000:394.387   Value=0x00000000
T7CAC 000:394.399 - 0.551ms returns 0
T7CAC 000:394.412 JLINK_CORESIGHT_WriteAPDPReg(AP reg 0x00, 0x80000002)
T7CAC 000:394.809 - 0.396ms returns 0
T7CAC 000:394.825 JLINK_CORESIGHT_WriteAPDPReg(AP reg 0x01, 0x80011130)
T7CAC 000:395.273 - 0.448ms returns 0
T7CAC 000:395.289 JLINK_CORESIGHT_ReadAPDPReg(AP reg 0x03)
T7CAC 000:395.761   Value=0x54F572C8
T7CAC 000:395.773 - 0.483ms returns 0
T7CAC 000:395.785 JLINK_CORESIGHT_WriteAPDPReg(AP reg 0x00, 0x80000002)
T7CAC 000:396.222 - 0.437ms returns 0
T7CAC 000:396.238 JLINK_CORESIGHT_WriteAPDPReg(AP reg 0x01, 0x80011140)
T7CAC 000:396.681 - 0.442ms returns 0
T7CAC 000:396.699 JLINK_CORESIGHT_ReadAPDPReg(AP reg 0x03)
T7CAC 000:397.214   Value=0x00000000
T7CAC 000:397.226 - 0.528ms returns 0
T7CAC 000:397.239 JLINK_CORESIGHT_WriteAPDPReg(AP reg 0x00, 0x80000002)
T7CAC 000:397.665 - 0.425ms returns 0
T7CAC 000:397.681 JLINK_CORESIGHT_WriteAPDPReg(AP reg 0x01, 0x80011130)
T7CAC 000:398.168 - 0.486ms returns 0
T7CAC 000:398.183 JLINK_CORESIGHT_ReadAPDPReg(AP reg 0x03)
T7CAC 000:398.620   Value=0x32355536
T7CAC 000:398.634 - 0.450ms returns 0
T7CAC 000:398.645 JLINK_CORESIGHT_WriteAPDPReg(AP reg 0x00, 0x80000002)
T7CAC 000:399.098 - 0.452ms returns 0
T7CAC 000:399.115 JLINK_CORESIGHT_WriteAPDPReg(AP reg 0x01, 0x80011140)
T7CAC 000:399.553 - 0.437ms returns 0
T7CAC 000:399.570 JLINK_CORESIGHT_ReadAPDPReg(AP reg 0x03)
T7CAC 000:400.135   Value=0x00000000
T7CAC 000:400.147 - 0.577ms returns 0
T7CAC 000:400.160 JLINK_CORESIGHT_WriteAPDPReg(AP reg 0x00, 0x80000002)
T7CAC 000:400.608 - 0.447ms returns 0
T7CAC 000:400.663 JLINK_CORESIGHT_WriteAPDPReg(AP reg 0x01, 0x80011130)
T7CAC 000:401.091 - 0.427ms returns 0
T7CAC 000:401.104 JLINK_CORESIGHT_ReadAPDPReg(AP reg 0x03)
T7CAC 000:401.554   Value=0x87022D38
T7CAC 000:401.566 - 0.462ms returns 0
T7CAC 000:401.576 JLINK_CORESIGHT_WriteAPDPReg(AP reg 0x00, 0x80000002)
T7CAC 000:401.972 - 0.396ms returns 0
T7CAC 000:401.985 JLINK_CORESIGHT_WriteAPDPReg(AP reg 0x01, 0x80011140)
T7CAC 000:402.448 - 0.462ms returns 0
T7CAC 000:402.461 JLINK_CORESIGHT_ReadAPDPReg(AP reg 0x03)
T7CAC 000:403.047   Value=0x00000000
T7CAC 000:403.059 - 0.598ms returns 0
T7CAC 000:403.069 JLINK_CORESIGHT_WriteAPDPReg(AP reg 0x00, 0x80000002)
T7CAC 000:403.549 - 0.479ms returns 0
T7CAC 000:403.562 JLINK_CORESIGHT_WriteAPDPReg(AP reg 0x01, 0x80011130)
T7CAC 000:403.944 - 0.381ms returns 0
T7CAC 000:403.960 JLINK_CORESIGHT_ReadAPDPReg(AP reg 0x03)
T7CAC 000:404.453   Value=0x4B375279
T7CAC 000:404.465 - 0.505ms returns 0
T7CAC 000:404.475 JLINK_CORESIGHT_WriteAPDPReg(AP reg 0x00, 0x80000002)
T7CAC 000:404.948 - 0.472ms returns 0
T7CAC 000:404.962 JLINK_CORESIGHT_WriteAPDPReg(AP reg 0x01, 0x80011140)
T7CAC 000:405.402 - 0.440ms returns 0
T7CAC 000:405.416 JLINK_CORESIGHT_ReadAPDPReg(AP reg 0x03)
T7CAC 000:405.903   Value=0x00000000
T7CAC 000:405.915 - 0.498ms returns 0
T7CAC 000:405.925 JLINK_CORESIGHT_WriteAPDPReg(AP reg 0x00, 0x80000002)
T7CAC 000:406.369 - 0.443ms returns 0
T7CAC 000:406.382 JLINK_CORESIGHT_WriteAPDPReg(AP reg 0x01, 0x80011130)
T7CAC 000:406.827 - 0.445ms returns 0
T7CAC 000:406.843 JLINK_CORESIGHT_ReadAPDPReg(AP reg 0x03)
T7CAC 000:407.315   Value=0x31503841
T7CAC 000:407.329 - 0.486ms returns 0
T7CAC 000:407.386 JLINK_CORESIGHT_WriteAPDPReg(AP reg 0x00, 0x80000002)
T7CAC 000:407.849 - 0.463ms returns 0
T7CAC 000:407.865 JLINK_CORESIGHT_WriteAPDPReg(AP reg 0x01, 0x80011140)
T7CAC 000:408.247 - 0.382ms returns 0
T7CAC 000:408.263 JLINK_CORESIGHT_ReadAPDPReg(AP reg 0x03)
T7CAC 000:408.774   Value=0x00000000
T7CAC 000:408.787 - 0.524ms returns 0
T7CAC 000:408.797 JLINK_CORESIGHT_WriteAPDPReg(AP reg 0x00, 0x80000002)
T7CAC 000:409.259 - 0.462ms returns 0
T7CAC 000:409.272 JLINK_CORESIGHT_WriteAPDPReg(AP reg 0x01, 0x80011130)
T7CAC 000:409.723 - 0.451ms returns 0
T7CAC 000:409.736 JLINK_CORESIGHT_ReadAPDPReg(AP reg 0x03)
T7CAC 000:410.222   Value=0x434C464B
T7CAC 000:410.234 - 0.498ms returns 0
T7CAC 000:410.244 JLINK_CORESIGHT_WriteAPDPReg(AP reg 0x00, 0x80000002)
T7CAC 000:410.696 - 0.452ms returns 0
T7CAC 000:410.711 JLINK_CORESIGHT_WriteAPDPReg(AP reg 0x01, 0x80011140)
T7CAC 000:411.194 - 0.483ms returns 0
T7CAC 000:411.208 JLINK_CORESIGHT_ReadAPDPReg(AP reg 0x03)
T7CAC 000:411.706   Value=0x00000000
T7CAC 000:411.718 - 0.510ms returns 0
T7CAC 000:411.728 JLINK_CORESIGHT_WriteAPDPReg(AP reg 0x00, 0x80000002)
T7CAC 000:412.167 - 0.439ms returns 0
T7CAC 000:412.180 JLINK_CORESIGHT_WriteAPDPReg(AP reg 0x01, 0x80011130)
T7CAC 000:412.574 - 0.393ms returns 0
T7CAC 000:412.587 JLINK_CORESIGHT_ReadAPDPReg(AP reg 0x03)
T7CAC 000:413.121   Value=0x20204341
T7CAC 000:413.133 - 0.546ms returns 0
T7CAC 000:413.143 JLINK_CORESIGHT_WriteAPDPReg(AP reg 0x00, 0x80000002)
T7CAC 000:413.518 - 0.375ms returns 0
T7CAC 000:413.531 JLINK_CORESIGHT_WriteAPDPReg(AP reg 0x01, 0x80011140)
T7CAC 000:413.972 - 0.440ms returns 0
T7CAC 000:413.985 JLINK_CORESIGHT_ReadAPDPReg(AP reg 0x03)
T7CAC 000:414.471   Value=0x00000000
T7CAC 000:414.483 - 0.498ms returns 0
T7CAC 000:414.493 JLINK_CORESIGHT_WriteAPDPReg(AP reg 0x00, 0x80000002)
T7CAC 000:414.939 - 0.446ms returns 0
T7CAC 000:414.952 JLINK_CORESIGHT_WriteAPDPReg(AP reg 0x01, 0x80011130)
T7CAC 000:415.432 - 0.479ms returns 0
T7CAC 000:415.445 JLINK_CORESIGHT_ReadAPDPReg(AP reg 0x03)
T7CAC 000:415.965   Value=0x00038C20
T7CAC 000:415.977 - 0.532ms returns 0
T7CAC 000:416.046 JLINK_CORESIGHT_WriteAPDPReg(AP reg 0x00, 0x80000002)
T7CAC 000:416.546 - 0.499ms returns 0
T7CAC 000:416.559 JLINK_CORESIGHT_WriteAPDPReg(AP reg 0x01, 0x80011140)
T7CAC 000:417.049 - 0.489ms returns 0
T7CAC 000:417.062 JLINK_CORESIGHT_ReadAPDPReg(AP reg 0x03)
T7CAC 000:417.554   Value=0x00000002
T7CAC 000:417.566 - 0.503ms returns 0
T7CAC 000:417.576 JLINK_CORESIGHT_WriteAPDPReg(AP reg 0x00, 0x80000002)
T7CAC 000:418.042 - 0.466ms returns 0
T7CAC 000:418.055 JLINK_CORESIGHT_WriteAPDPReg(AP reg 0x01, 0x80011120)
T7CAC 000:418.448 - 0.393ms returns 0
T7CAC 000:418.461 JLINK_CORESIGHT_WriteAPDPReg(AP reg 0x03, 0x39020001)
T7CAC 000:418.928 - 0.467ms returns 0
T7CAC 000:418.942 JLINK_CORESIGHT_WriteAPDPReg(AP reg 0x00, 0x80000002)
T7CAC 000:419.781 - 0.839ms returns 0
T7CAC 000:419.797 JLINK_CORESIGHT_WriteAPDPReg(AP reg 0x01, 0x80011140)
T7CAC 000:420.284 - 0.486ms returns 0
T7CAC 000:420.299 JLINK_CORESIGHT_ReadAPDPReg(AP reg 0x03)
T7CAC 000:420.804   Value=0x00000002
T7CAC 000:420.819 - 0.520ms returns 0
T7CAC 000:420.830 JLINK_CORESIGHT_WriteAPDPReg(AP reg 0x00, 0x80000002)
T7CAC 000:421.210 - 0.380ms returns 0
T7CAC 000:421.223 JLINK_CORESIGHT_WriteAPDPReg(AP reg 0x01, 0x80011120)
T7CAC 000:421.619 - 0.395ms returns 0
T7CAC 000:421.654 JLINK_CORESIGHT_WriteAPDPReg(AP reg 0x03, 0x0003B312)
T7CAC 000:422.056 - 0.402ms returns 0
T7CAC 000:422.069 JLINK_CORESIGHT_WriteAPDPReg(AP reg 0x00, 0x80000002)
T7CAC 000:422.547 - 0.477ms returns 0
T7CAC 000:422.560 JLINK_CORESIGHT_WriteAPDPReg(AP reg 0x01, 0x80011140)
T7CAC 000:423.059 - 0.498ms returns 0
T7CAC 000:423.074 JLINK_CORESIGHT_ReadAPDPReg(AP reg 0x03)
T7CAC 000:423.566   Value=0x00000000
T7CAC 000:423.579 - 0.504ms returns 0
T7CAC 000:423.589 JLINK_CORESIGHT_WriteAPDPReg(AP reg 0x00, 0x80000002)
T7CAC 000:424.045 - 0.455ms returns 0
T7CAC 000:424.058 JLINK_CORESIGHT_WriteAPDPReg(AP reg 0x01, 0x80011130)
T7CAC 000:424.511 - 0.453ms returns 0
T7CAC 000:424.526 JLINK_CORESIGHT_ReadAPDPReg(AP reg 0x03)
T7CAC 000:425.086   Value=0xB90A0081
T7CAC 000:425.098 - 0.572ms returns 0
T7CAC 000:425.108 JLINK_CORESIGHT_WriteAPDPReg(AP reg 0x00, 0x80000002)
T7CAC 000:425.545 - 0.437ms returns 0
T7CAC 000:425.558 JLINK_CORESIGHT_WriteAPDPReg(AP reg 0x01, 0x80011140)
T7CAC 000:425.948 - 0.390ms returns 0
T7CAC 000:425.961 JLINK_CORESIGHT_ReadAPDPReg(AP reg 0x03)
T7CAC 000:426.463   Value=0x00000000
T7CAC 000:426.475 - 0.513ms returns 0
T7CAC 000:426.485 JLINK_CORESIGHT_WriteAPDPReg(AP reg 0x00, 0x80000002)
T7CAC 000:426.883 - 0.398ms returns 0
T7CAC 000:426.900 JLINK_CORESIGHT_WriteAPDPReg(AP reg 0x01, 0x80011130)
T7CAC 000:427.361 - 0.461ms returns 0
T7CAC 000:427.376 JLINK_CORESIGHT_ReadAPDPReg(AP reg 0x03)
T7CAC 000:427.814   Value=0xFFFFFFC0
T7CAC 000:427.827 - 0.450ms returns 0
T7CAC 000:427.840 JLINK_CORESIGHT_WriteAPDPReg(AP reg 0x00, 0x80000002)
T7CAC 000:428.269 - 0.429ms returns 0
T7CAC 000:428.285 JLINK_CORESIGHT_WriteAPDPReg(AP reg 0x01, 0x80011140)
T7CAC 000:428.798 - 0.512ms returns 0
T7CAC 000:428.814 JLINK_CORESIGHT_ReadAPDPReg(AP reg 0x03)
T7CAC 000:429.280   Value=0x00000000
T7CAC 000:429.292 - 0.478ms returns 0
T7CAC 000:429.305 JLINK_CORESIGHT_WriteAPDPReg(AP reg 0x00, 0x80000002)
T7CAC 000:429.706 - 0.401ms returns 0
T7CAC 000:429.722 JLINK_CORESIGHT_WriteAPDPReg(AP reg 0x01, 0x80011130)
T7CAC 000:430.236 - 0.513ms returns 0
T7CAC 000:430.251 JLINK_CORESIGHT_ReadAPDPReg(AP reg 0x03)
T7CAC 000:430.795   Value=0xFFFFFFFF
T7CAC 000:430.807 - 0.555ms returns 0
T7CAC 000:430.819 JLINK_CORESIGHT_WriteAPDPReg(AP reg 0x00, 0x80000002)
T7CAC 000:431.213 - 0.393ms returns 0
T7CAC 000:431.229 JLINK_CORESIGHT_WriteAPDPReg(AP reg 0x01, 0x80011140)
T7CAC 000:431.650 - 0.421ms returns 0
T7CAC 000:431.667 JLINK_CORESIGHT_ReadAPDPReg(AP reg 0x03)
T7CAC 000:432.136   Value=0x00000000
T7CAC 000:432.158 - 0.491ms returns 0
T7CAC 000:432.173 JLINK_CORESIGHT_WriteAPDPReg(AP reg 0x00, 0x80000002)
T7CAC 000:432.573 - 0.400ms returns 0
T7CAC 000:432.589 JLINK_CORESIGHT_WriteAPDPReg(AP reg 0x01, 0x80011130)
T7CAC 000:433.040 - 0.450ms returns 0
T7CAC 000:433.055 JLINK_CORESIGHT_ReadAPDPReg(AP reg 0x03)
T7CAC 000:433.614   Value=0x000385FF
T7CAC 000:433.629 - 0.574ms returns 0
T7CAC 000:433.705 JLINK_CORESIGHT_WriteAPDPReg(AP reg 0x00, 0x80000002)
T7CAC 000:434.176 - 0.471ms returns 0
T7CAC 000:434.190 JLINK_CORESIGHT_WriteAPDPReg(AP reg 0x01, 0x80011140)
T7CAC 000:434.594 - 0.403ms returns 0
T7CAC 000:434.607 JLINK_CORESIGHT_ReadAPDPReg(AP reg 0x03)
T7CAC 000:435.097   Value=0x00000002
T7CAC 000:435.108 - 0.501ms returns 0
T7CAC 000:435.118 JLINK_CORESIGHT_WriteAPDPReg(AP reg 0x00, 0x80000002)
T7CAC 000:435.587 - 0.469ms returns 0
T7CAC 000:435.600 JLINK_CORESIGHT_WriteAPDPReg(AP reg 0x01, 0x80011120)
T7CAC 000:436.056 - 0.455ms returns 0
T7CAC 000:436.069 JLINK_CORESIGHT_WriteAPDPReg(AP reg 0x03, 0x2C010001)
T7CAC 000:436.522 - 0.452ms returns 0
T7CAC 000:436.535 JLINK_CORESIGHT_WriteAPDPReg(AP reg 0x00, 0x80000002)
T7CAC 000:436.932 - 0.396ms returns 0
T7CAC 000:436.947 JLINK_CORESIGHT_WriteAPDPReg(AP reg 0x01, 0x80011140)
T7CAC 000:437.396 - 0.449ms returns 0
T7CAC 000:437.410 JLINK_CORESIGHT_ReadAPDPReg(AP reg 0x03)
T7CAC 000:437.952   Value=0x00000002
T7CAC 000:437.967 - 0.556ms returns 0
T7CAC 000:437.977 JLINK_CORESIGHT_WriteAPDPReg(AP reg 0x00, 0x80000002)
T7CAC 000:438.397 - 0.420ms returns 0
T7CAC 000:438.410 JLINK_CORESIGHT_WriteAPDPReg(AP reg 0x01, 0x80011120)
T7CAC 000:438.898 - 0.487ms returns 0
T7CAC 000:438.914 JLINK_CORESIGHT_WriteAPDPReg(AP reg 0x03, 0x000003D3)
T7CAC 000:439.388 - 0.474ms returns 0
T7CAC 000:439.403 JLINK_CORESIGHT_WriteAPDPReg(AP reg 0x00, 0x80000002)
T7CAC 000:439.839 - 0.436ms returns 0
T7CAC 000:439.852 JLINK_CORESIGHT_WriteAPDPReg(AP reg 0x01, 0x80011140)
T7CAC 000:440.339 - 0.486ms returns 0
T7CAC 000:440.353 JLINK_CORESIGHT_ReadAPDPReg(AP reg 0x03)
T7CAC 000:440.923   Value=0x00000000
T7CAC 000:440.936 - 0.583ms returns 0
T7CAC 000:440.952 JLINK_CORESIGHT_WriteAPDPReg(AP reg 0x00, 0x80000002)
T7CAC 000:441.349 - 0.397ms returns 0
T7CAC 000:441.363 JLINK_CORESIGHT_WriteAPDPReg(AP reg 0x01, 0x80011130)
T7CAC 000:441.800 - 0.437ms returns 0
T7CAC 000:441.813 JLINK_CORESIGHT_ReadAPDPReg(AP reg 0x03)
T7CAC 000:442.323   Value=0x2C020081
T7CAC 000:442.336 - 0.522ms returns 0
T7CAC 000:442.345 JLINK_CORESIGHT_WriteAPDPReg(AP reg 0x00, 0x80000002)
T7CAC 000:442.773 - 0.427ms returns 0
T7CAC 000:442.787 JLINK_CORESIGHT_WriteAPDPReg(AP reg 0x01, 0x80011140)
T7CAC 000:443.235 - 0.448ms returns 0
T7CAC 000:443.249 JLINK_CORESIGHT_ReadAPDPReg(AP reg 0x03)
T7CAC 000:443.693   Value=0x00000000
T7CAC 000:443.706 - 0.457ms returns 0
T7CAC 000:443.717 JLINK_CORESIGHT_WriteAPDPReg(AP reg 0x00, 0x80000002)
T7CAC 000:444.190 - 0.473ms returns 0
T7CAC 000:444.203 JLINK_CORESIGHT_WriteAPDPReg(AP reg 0x01, 0x80011130)
T7CAC 000:444.671 - 0.467ms returns 0
T7CAC 000:444.694 JLINK_CORESIGHT_ReadAPDPReg(AP reg 0x03)
T7CAC 000:445.216   Value=0x0003CE04
T7CAC 000:445.228 - 0.534ms returns 0
T7CAC 000:445.243 JLINK_CORESIGHT_WriteAPDPReg(AP reg 0x00, 0x80000002)
T7CAC 000:445.717 - 0.473ms returns 0
T7CAC 000:445.730 JLINK_CORESIGHT_WriteAPDPReg(AP reg 0x01, 0x80011140)
T7CAC 000:446.194 - 0.465ms returns 0
T7CAC 000:446.208 JLINK_CORESIGHT_ReadAPDPReg(AP reg 0x03)
T7CAC 000:446.660   Value=0x00000002
T7CAC 000:446.672 - 0.464ms returns 0
T7CAC 000:446.682 JLINK_CORESIGHT_WriteAPDPReg(AP reg 0x00, 0x80000002)
T7CAC 000:447.154 - 0.472ms returns 0
T7CAC 000:447.168 JLINK_CORESIGHT_WriteAPDPReg(AP reg 0x01, 0x80011120)
T7CAC 000:447.608 - 0.440ms returns 0
T7CAC 000:447.621 JLINK_CORESIGHT_WriteAPDPReg(AP reg 0x03, 0x73010001)
T7CAC 000:448.085 - 0.464ms returns 0
T7CAC 000:448.100 JLINK_CORESIGHT_WriteAPDPReg(AP reg 0x00, 0x80000002)
T7CAC 000:448.563 - 0.462ms returns 0
T7CAC 000:448.576 JLINK_CORESIGHT_WriteAPDPReg(AP reg 0x01, 0x80011140)
T7CAC 000:449.042 - 0.466ms returns 0
T7CAC 000:449.056 JLINK_CORESIGHT_ReadAPDPReg(AP reg 0x03)
T7CAC 000:449.543   Value=0x00000002
T7CAC 000:449.556 - 0.500ms returns 0
T7CAC 000:449.566 JLINK_CORESIGHT_WriteAPDPReg(AP reg 0x00, 0x80000002)
T7CAC 000:450.188 - 0.621ms returns 0
T7CAC 000:450.204 JLINK_CORESIGHT_WriteAPDPReg(AP reg 0x01, 0x80011120)
T7CAC 000:450.661 - 0.457ms returns 0
T7CAC 000:450.675 JLINK_CORESIGHT_WriteAPDPReg(AP reg 0x03, 0x0000038C)
T7CAC 000:451.058 - 0.381ms returns 0
T7CAC 000:451.073 JLINK_CORESIGHT_WriteAPDPReg(AP reg 0x00, 0x80000002)
T7CAC 000:451.476 - 0.402ms returns 0
T7CAC 000:451.490 JLINK_CORESIGHT_WriteAPDPReg(AP reg 0x01, 0x80011140)
T7CAC 000:451.921 - 0.430ms returns 0
T7CAC 000:451.935 JLINK_CORESIGHT_ReadAPDPReg(AP reg 0x03)
T7CAC 000:452.451   Value=0x00000002
T7CAC 000:452.464 - 0.529ms returns 0
T7CAC 000:452.474 JLINK_CORESIGHT_ReadAPDPReg(AP reg 0x03)
T7CAC 000:452.931   Value=0x00000000
T7CAC 000:452.944 - 0.470ms returns 0
T7CAC 000:452.955 JLINK_CORESIGHT_WriteAPDPReg(AP reg 0x00, 0x80000002)
T7CAC 000:453.403 - 0.448ms returns 0
T7CAC 000:453.417 JLINK_CORESIGHT_WriteAPDPReg(AP reg 0x01, 0x80011130)
T7CAC 000:453.933 - 0.516ms returns 0
T7CAC 000:453.947 JLINK_CORESIGHT_ReadAPDPReg(AP reg 0x03)
T7CAC 000:454.490   Value=0x73020081
T7CAC 000:454.503 - 0.556ms returns 0
T7CAC 000:454.512 JLINK_CORESIGHT_WriteAPDPReg(AP reg 0x00, 0x80000002)
T7CAC 000:454.905 - 0.392ms returns 0
T7CAC 000:454.920 JLINK_CORESIGHT_WriteAPDPReg(AP reg 0x01, 0x80011140)
T7CAC 000:455.359 - 0.439ms returns 0
T7CAC 000:455.373 JLINK_CORESIGHT_ReadAPDPReg(AP reg 0x03)
T7CAC 000:455.904   Value=0x00000000
T7CAC 000:455.916 - 0.543ms returns 0
T7CAC 000:455.926 JLINK_CORESIGHT_WriteAPDPReg(AP reg 0x00, 0x80000002)
T7CAC 000:456.369 - 0.443ms returns 0
T7CAC 000:456.382 JLINK_CORESIGHT_WriteAPDPReg(AP reg 0x01, 0x80011130)
T7CAC 000:456.853 - 0.470ms returns 0
T7CAC 000:456.866 JLINK_CORESIGHT_ReadAPDPReg(AP reg 0x03)
T7CAC 000:457.302   Value=0x00038902
T7CAC 000:457.314 - 0.448ms returns 0
T7CAC 000:457.326 JLINK_CORESIGHT_WriteAPDPReg(AP reg 0x00, 0x80000002)
T7CAC 000:457.802 - 0.475ms returns 0
T7CAC 000:457.815 JLINK_CORESIGHT_WriteAPDPReg(AP reg 0x01, 0x80011140)
T7CAC 000:458.259 - 0.443ms returns 0
T7CAC 000:458.273 JLINK_CORESIGHT_ReadAPDPReg(AP reg 0x03)
T7CAC 000:458.735   Value=0x00000002
T7CAC 000:458.747 - 0.474ms returns 0
T7CAC 000:458.761 JLINK_CORESIGHT_WriteAPDPReg(AP reg 0x00, 0x80000002)
T7CAC 000:459.174 - 0.413ms returns 0
T7CAC 000:459.191 JLINK_CORESIGHT_WriteAPDPReg(AP reg 0x01, 0x80011120)
T7CAC 000:459.609 - 0.418ms returns 0
T7CAC 000:459.656 JLINK_CORESIGHT_WriteAPDPReg(AP reg 0x03, 0x75010001)
T7CAC 000:460.054 - 0.398ms returns 0
T7CAC 000:460.070 JLINK_CORESIGHT_WriteAPDPReg(AP reg 0x00, 0x80000002)
T7CAC 000:460.528 - 0.457ms returns 0
T7CAC 000:460.544 JLINK_CORESIGHT_WriteAPDPReg(AP reg 0x01, 0x80011140)
T7CAC 000:460.944 - 0.400ms returns 0
T7CAC 000:460.961 JLINK_CORESIGHT_ReadAPDPReg(AP reg 0x03)
T7CAC 000:461.449   Value=0x00000002
T7CAC 000:461.461 - 0.500ms returns 0
T7CAC 000:461.474 JLINK_CORESIGHT_WriteAPDPReg(AP reg 0x00, 0x80000002)
T7CAC 000:461.943 - 0.469ms returns 0
T7CAC 000:461.960 JLINK_CORESIGHT_WriteAPDPReg(AP reg 0x01, 0x80011120)
T7CAC 000:462.403 - 0.442ms returns 0
T7CAC 000:462.419 JLINK_CORESIGHT_WriteAPDPReg(AP reg 0x03, 0x0000038A)
T7CAC 000:462.885 - 0.466ms returns 0
T7CAC 000:462.901 JLINK_CORESIGHT_WriteAPDPReg(AP reg 0x00, 0x80000002)
T7CAC 000:463.395 - 0.493ms returns 0
T7CAC 000:463.412 JLINK_CORESIGHT_WriteAPDPReg(AP reg 0x01, 0x80011140)
T7CAC 000:463.906 - 0.494ms returns 0
T7CAC 000:463.923 JLINK_CORESIGHT_ReadAPDPReg(AP reg 0x03)
T7CAC 000:464.417   Value=0x00000002
T7CAC 000:464.429 - 0.506ms returns 0
T7CAC 000:464.442 JLINK_CORESIGHT_ReadAPDPReg(AP reg 0x03)
T7CAC 000:464.909   Value=0x00000000
T7CAC 000:464.921 - 0.479ms returns 0
T7CAC 000:464.934 JLINK_CORESIGHT_WriteAPDPReg(AP reg 0x00, 0x80000002)
T7CAC 000:465.407 - 0.473ms returns 0
T7CAC 000:465.422 JLINK_CORESIGHT_WriteAPDPReg(AP reg 0x01, 0x80011130)
T7CAC 000:465.901 - 0.478ms returns 0
T7CAC 000:465.917 JLINK_CORESIGHT_ReadAPDPReg(AP reg 0x03)
T7CAC 000:466.434   Value=0x75020081
T7CAC 000:466.447 - 0.530ms returns 0
T7CAC 000:466.460 JLINK_CORESIGHT_WriteAPDPReg(AP reg 0x00, 0x80000002)
T7CAC 000:466.906 - 0.446ms returns 0
T7CAC 000:466.924 JLINK_CORESIGHT_WriteAPDPReg(AP reg 0x01, 0x80011140)
T7CAC 000:467.370 - 0.446ms returns 0
T7CAC 000:467.386 JLINK_CORESIGHT_ReadAPDPReg(AP reg 0x03)
T7CAC 000:467.874   Value=0x00000000
T7CAC 000:467.886 - 0.500ms returns 0
T7CAC 000:467.899 JLINK_CORESIGHT_WriteAPDPReg(AP reg 0x00, 0x80000002)
T7CAC 000:468.321 - 0.422ms returns 0
T7CAC 000:468.337 JLINK_CORESIGHT_WriteAPDPReg(AP reg 0x01, 0x80011130)
T7CAC 000:468.785 - 0.448ms returns 0
T7CAC 000:468.801 JLINK_CORESIGHT_ReadAPDPReg(AP reg 0x03)
T7CAC 000:469.270   Value=0x00038702
T7CAC 000:469.282 - 0.481ms returns 0
T7CAC 000:469.332 JLINK_CORESIGHT_WriteAPDPReg(AP reg 0x00, 0x80000002)
T7CAC 000:469.784 - 0.452ms returns 0
T7CAC 000:469.797 JLINK_CORESIGHT_WriteAPDPReg(AP reg 0x01, 0x80011140)
T7CAC 000:470.234 - 0.436ms returns 0
T7CAC 000:470.248 JLINK_CORESIGHT_ReadAPDPReg(AP reg 0x03)
T7CAC 000:470.720   Value=0x00000002
T7CAC 000:470.733 - 0.485ms returns 0
T7CAC 000:470.743 JLINK_CORESIGHT_WriteAPDPReg(AP reg 0x00, 0x80000002)
T7CAC 000:471.194 - 0.450ms returns 0
T7CAC 000:471.207 JLINK_CORESIGHT_WriteAPDPReg(AP reg 0x01, 0x80011120)
T7CAC 000:471.660 - 0.453ms returns 0
T7CAC 000:471.673 JLINK_CORESIGHT_WriteAPDPReg(AP reg 0x03, 0x4F010001)
T7CAC 000:472.080 - 0.406ms returns 0
T7CAC 000:472.093 JLINK_CORESIGHT_WriteAPDPReg(AP reg 0x00, 0x80000002)
T7CAC 000:472.531 - 0.438ms returns 0
T7CAC 000:472.544 JLINK_CORESIGHT_WriteAPDPReg(AP reg 0x01, 0x80011140)
T7CAC 000:473.048 - 0.504ms returns 0
T7CAC 000:473.063 JLINK_CORESIGHT_ReadAPDPReg(AP reg 0x03)
T7CAC 000:473.511   Value=0x00000002
T7CAC 000:473.524 - 0.460ms returns 0
T7CAC 000:473.533 JLINK_CORESIGHT_WriteAPDPReg(AP reg 0x00, 0x80000002)
T7CAC 000:473.973 - 0.439ms returns 0
T7CAC 000:473.987 JLINK_CORESIGHT_WriteAPDPReg(AP reg 0x01, 0x80011120)
T7CAC 000:474.406 - 0.419ms returns 0
T7CAC 000:474.419 JLINK_CORESIGHT_WriteAPDPReg(AP reg 0x03, 0x000003B0)
T7CAC 000:474.860 - 0.440ms returns 0
T7CAC 000:474.875 JLINK_CORESIGHT_WriteAPDPReg(AP reg 0x00, 0x80000002)
T7CAC 000:475.368 - 0.492ms returns 0
T7CAC 000:475.381 JLINK_CORESIGHT_WriteAPDPReg(AP reg 0x01, 0x80011140)
T7CAC 000:475.829 - 0.448ms returns 0
T7CAC 000:475.854 JLINK_CORESIGHT_ReadAPDPReg(AP reg 0x03)
T7CAC 000:476.364   Value=0x00000002
T7CAC 000:476.376 - 0.523ms returns 0
T7CAC 000:476.386 JLINK_CORESIGHT_ReadAPDPReg(AP reg 0x03)
T7CAC 000:476.920   Value=0x00000002
T7CAC 000:476.932 - 0.545ms returns 0
T7CAC 000:476.941 JLINK_CORESIGHT_ReadAPDPReg(AP reg 0x03)
T7CAC 000:477.650   Value=0x00000002
T7CAC 000:477.663 - 0.721ms returns 0
T7CAC 000:477.673 JLINK_CORESIGHT_ReadAPDPReg(AP reg 0x03)
T7CAC 000:478.246   Value=0x00000002
T7CAC 000:478.258 - 0.585ms returns 0
T7CAC 000:478.268 JLINK_CORESIGHT_ReadAPDPReg(AP reg 0x03)
T7CAC 000:478.773   Value=0x00000002
T7CAC 000:478.787 - 0.519ms returns 0
T7CAC 000:478.797 JLINK_CORESIGHT_ReadAPDPReg(AP reg 0x03)
T7CAC 000:479.262   Value=0x00000000
T7CAC 000:479.275 - 0.477ms returns 0
T7CAC 000:479.285 JLINK_CORESIGHT_WriteAPDPReg(AP reg 0x00, 0x80000002)
T7CAC 000:479.726 - 0.441ms returns 0
T7CAC 000:479.741 JLINK_CORESIGHT_WriteAPDPReg(AP reg 0x01, 0x80011130)
T7CAC 000:480.194 - 0.453ms returns 0
T7CAC 000:480.207 JLINK_CORESIGHT_ReadAPDPReg(AP reg 0x03)
T7CAC 000:480.679   Value=0x4F0B0081
T7CAC 000:480.692 - 0.485ms returns 0
T7CAC 000:480.701 JLINK_CORESIGHT_WriteAPDPReg(AP reg 0x00, 0x80000002)
T7CAC 000:481.169 - 0.467ms returns 0
T7CAC 000:481.182 JLINK_CORESIGHT_WriteAPDPReg(AP reg 0x01, 0x80011140)
T7CAC 000:481.608 - 0.426ms returns 0
T7CAC 000:481.621 JLINK_CORESIGHT_ReadAPDPReg(AP reg 0x03)
T7CAC 000:482.161   Value=0x00000000
T7CAC 000:482.173 - 0.551ms returns 0
T7CAC 000:482.182 JLINK_CORESIGHT_WriteAPDPReg(AP reg 0x00, 0x80000002)
T7CAC 000:482.577 - 0.394ms returns 0
T7CAC 000:482.590 JLINK_CORESIGHT_WriteAPDPReg(AP reg 0x01, 0x80011130)
T7CAC 000:483.054 - 0.463ms returns 0
T7CAC 000:483.067 JLINK_CORESIGHT_ReadAPDPReg(AP reg 0x03)
T7CAC 000:483.531   Value=0x60000000
T7CAC 000:483.543 - 0.476ms returns 0
T7CAC 000:483.553 JLINK_CORESIGHT_WriteAPDPReg(AP reg 0x00, 0x80000002)
T7CAC 000:484.042 - 0.488ms returns 0
T7CAC 000:484.055 JLINK_CORESIGHT_WriteAPDPReg(AP reg 0x01, 0x80011140)
T7CAC 000:484.417 - 0.362ms returns 0
T7CAC 000:484.430 JLINK_CORESIGHT_ReadAPDPReg(AP reg 0x03)
T7CAC 000:485.053   Value=0x00000000
T7CAC 000:485.065 - 0.634ms returns 0
T7CAC 000:485.075 JLINK_CORESIGHT_WriteAPDPReg(AP reg 0x00, 0x80000002)
T7CAC 000:485.472 - 0.397ms returns 0
T7CAC 000:485.485 JLINK_CORESIGHT_WriteAPDPReg(AP reg 0x01, 0x80011130)
T7CAC 000:485.918 - 0.433ms returns 0
T7CAC 000:485.931 JLINK_CORESIGHT_ReadAPDPReg(AP reg 0x03)
T7CAC 000:486.371   Value=0x00000000
T7CAC 000:486.383 - 0.452ms returns 0
T7CAC 000:486.392 JLINK_CORESIGHT_WriteAPDPReg(AP reg 0x00, 0x80000002)
T7CAC 000:486.883 - 0.490ms returns 0
T7CAC 000:486.896 JLINK_CORESIGHT_WriteAPDPReg(AP reg 0x01, 0x80011140)
T7CAC 000:487.339 - 0.443ms returns 0
T7CAC 000:487.352 JLINK_CORESIGHT_ReadAPDPReg(AP reg 0x03)
T7CAC 000:487.782   Value=0x00000000
T7CAC 000:487.805 - 0.452ms returns 0
T7CAC 000:487.834 JLINK_CORESIGHT_WriteAPDPReg(AP reg 0x00, 0x80000002)
T7CAC 000:488.339 - 0.505ms returns 0
T7CAC 000:488.353 JLINK_CORESIGHT_WriteAPDPReg(AP reg 0x01, 0x80011130)
T7CAC 000:488.830 - 0.477ms returns 0
T7CAC 000:488.845 JLINK_CORESIGHT_ReadAPDPReg(AP reg 0x03)
T7CAC 000:489.294   Value=0x03460000
T7CAC 000:489.307 - 0.462ms returns 0
T7CAC 000:489.402 JLINK_CORESIGHT_WriteAPDPReg(AP reg 0x00, 0x80000002)
T7CAC 000:489.804 - 0.402ms returns 0
T7CAC 000:489.818 JLINK_CORESIGHT_WriteAPDPReg(AP reg 0x01, 0x80011140)
T7CAC 000:490.244 - 0.427ms returns 0
T7CAC 000:490.258 JLINK_CORESIGHT_ReadAPDPReg(AP reg 0x03)
T7CAC 000:490.693   Value=0x00000002
T7CAC 000:490.707 - 0.448ms returns 0
T7CAC 000:490.717 JLINK_CORESIGHT_WriteAPDPReg(AP reg 0x00, 0x80000002)
T7CAC 000:491.198 - 0.480ms returns 0
T7CAC 000:491.211 JLINK_CORESIGHT_WriteAPDPReg(AP reg 0x01, 0x80011120)
T7CAC 000:491.614 - 0.402ms returns 0
T7CAC 000:491.662 JLINK_CORESIGHT_WriteAPDPReg(AP reg 0x03, 0x2C010001)
T7CAC 000:492.091 - 0.429ms returns 0
T7CAC 000:492.105 JLINK_CORESIGHT_WriteAPDPReg(AP reg 0x00, 0x80000002)
T7CAC 000:492.552 - 0.447ms returns 0
T7CAC 000:492.566 JLINK_CORESIGHT_WriteAPDPReg(AP reg 0x01, 0x80011140)
T7CAC 000:492.943 - 0.377ms returns 0
T7CAC 000:492.956 JLINK_CORESIGHT_ReadAPDPReg(AP reg 0x03)
T7CAC 000:493.441   Value=0x00000002
T7CAC 000:493.454 - 0.497ms returns 0
T7CAC 000:493.463 JLINK_CORESIGHT_WriteAPDPReg(AP reg 0x00, 0x80000002)
T7CAC 000:493.905 - 0.442ms returns 0
T7CAC 000:493.922 JLINK_CORESIGHT_WriteAPDPReg(AP reg 0x01, 0x80011120)
T7CAC 000:494.292 - 0.370ms returns 0
T7CAC 000:494.309 JLINK_CORESIGHT_WriteAPDPReg(AP reg 0x03, 0x000003D3)
T7CAC 000:494.706 - 0.397ms returns 0
T7CAC 000:494.722 JLINK_CORESIGHT_WriteAPDPReg(AP reg 0x00, 0x80000002)
T7CAC 000:495.168 - 0.445ms returns 0
T7CAC 000:495.184 JLINK_CORESIGHT_WriteAPDPReg(AP reg 0x01, 0x80011140)
T7CAC 000:495.609 - 0.424ms returns 0
T7CAC 000:495.640 JLINK_CORESIGHT_ReadAPDPReg(AP reg 0x03)
T7CAC 000:496.133   Value=0x00000000
T7CAC 000:496.146 - 0.506ms returns 0
T7CAC 000:496.158 JLINK_CORESIGHT_WriteAPDPReg(AP reg 0x00, 0x80000002)
T7CAC 000:496.554 - 0.395ms returns 0
T7CAC 000:496.570 JLINK_CORESIGHT_WriteAPDPReg(AP reg 0x01, 0x80011130)
T7CAC 000:497.047 - 0.477ms returns 0
T7CAC 000:497.064 JLINK_CORESIGHT_ReadAPDPReg(AP reg 0x03)
T7CAC 000:497.566   Value=0x2C020081
T7CAC 000:497.578 - 0.514ms returns 0
T7CAC 000:497.590 JLINK_CORESIGHT_WriteAPDPReg(AP reg 0x00, 0x80000002)
T7CAC 000:498.041 - 0.450ms returns 0
T7CAC 000:498.057 JLINK_CORESIGHT_WriteAPDPReg(AP reg 0x01, 0x80011140)
T7CAC 000:498.448 - 0.391ms returns 0
T7CAC 000:498.464 JLINK_CORESIGHT_ReadAPDPReg(AP reg 0x03)
T7CAC 000:498.956   Value=0x00000000
T7CAC 000:498.970 - 0.505ms returns 0
T7CAC 000:498.983 JLINK_CORESIGHT_WriteAPDPReg(AP reg 0x00, 0x80000002)
T7CAC 000:499.449 - 0.466ms returns 0
T7CAC 000:499.466 JLINK_CORESIGHT_WriteAPDPReg(AP reg 0x01, 0x80011130)
T7CAC 000:499.909 - 0.443ms returns 0
T7CAC 000:499.926 JLINK_CORESIGHT_ReadAPDPReg(AP reg 0x03)
T7CAC 000:500.371   Value=0x0003CE04
T7CAC 000:500.383 - 0.456ms returns 0
T7CAC 000:500.431 JLINK_CORESIGHT_WriteAPDPReg(AP reg 0x00, 0x80000002)
T7CAC 000:500.888 - 0.456ms returns 0
T7CAC 000:500.903 JLINK_CORESIGHT_WriteAPDPReg(AP reg 0x01, 0x80011140)
T7CAC 000:501.366 - 0.463ms returns 0
T7CAC 000:501.379 JLINK_CORESIGHT_ReadAPDPReg(AP reg 0x03)
T7CAC 000:501.870   Value=0x00000002
T7CAC 000:501.882 - 0.502ms returns 0
T7CAC 000:501.891 JLINK_CORESIGHT_WriteAPDPReg(AP reg 0x00, 0x80000002)
T7CAC 000:502.339 - 0.447ms returns 0
T7CAC 000:502.352 JLINK_CORESIGHT_WriteAPDPReg(AP reg 0x01, 0x80011120)
T7CAC 000:502.819 - 0.466ms returns 0
T7CAC 000:502.832 JLINK_CORESIGHT_WriteAPDPReg(AP reg 0x03, 0x73010001)
T7CAC 000:503.281 - 0.448ms returns 0
T7CAC 000:503.295 JLINK_CORESIGHT_WriteAPDPReg(AP reg 0x00, 0x80000002)
T7CAC 000:503.712 - 0.417ms returns 0
T7CAC 000:503.726 JLINK_CORESIGHT_WriteAPDPReg(AP reg 0x01, 0x80011140)
T7CAC 000:504.170 - 0.444ms returns 0
T7CAC 000:504.186 JLINK_CORESIGHT_ReadAPDPReg(AP reg 0x03)
T7CAC 000:504.681   Value=0x00000002
T7CAC 000:504.695 - 0.509ms returns 0
T7CAC 000:504.706 JLINK_CORESIGHT_WriteAPDPReg(AP reg 0x00, 0x80000002)
T7CAC 000:505.197 - 0.491ms returns 0
T7CAC 000:505.211 JLINK_CORESIGHT_WriteAPDPReg(AP reg 0x01, 0x80011120)
T7CAC 000:505.707 - 0.496ms returns 0
T7CAC 000:505.722 JLINK_CORESIGHT_WriteAPDPReg(AP reg 0x03, 0x0000038C)
T7CAC 000:506.172 - 0.450ms returns 0
T7CAC 000:506.186 JLINK_CORESIGHT_WriteAPDPReg(AP reg 0x00, 0x80000002)
T7CAC 000:506.564 - 0.378ms returns 0
T7CAC 000:506.578 JLINK_CORESIGHT_WriteAPDPReg(AP reg 0x01, 0x80011140)
T7CAC 000:507.169 - 0.591ms returns 0
T7CAC 000:507.184 JLINK_CORESIGHT_ReadAPDPReg(AP reg 0x03)
T7CAC 000:507.685   Value=0x00000002
T7CAC 000:507.697 - 0.513ms returns 0
T7CAC 000:507.707 JLINK_CORESIGHT_ReadAPDPReg(AP reg 0x03)
T7CAC 000:508.239   Value=0x00000002
T7CAC 000:508.252 - 0.545ms returns 0
T7CAC 000:508.261 JLINK_CORESIGHT_ReadAPDPReg(AP reg 0x03)
T7CAC 000:508.701   Value=0x00000002
T7CAC 000:508.713 - 0.452ms returns 0
T7CAC 000:508.723 JLINK_CORESIGHT_ReadAPDPReg(AP reg 0x03)
T7CAC 000:509.213   Value=0x00000002
T7CAC 000:509.225 - 0.502ms returns 0
T7CAC 000:509.235 JLINK_CORESIGHT_ReadAPDPReg(AP reg 0x03)
T7CAC 000:509.773   Value=0x00000000
T7CAC 000:509.785 - 0.550ms returns 0
T7CAC 000:509.795 JLINK_CORESIGHT_WriteAPDPReg(AP reg 0x00, 0x80000002)
T7CAC 000:510.238 - 0.443ms returns 0
T7CAC 000:510.251 JLINK_CORESIGHT_WriteAPDPReg(AP reg 0x01, 0x80011130)
T7CAC 000:510.696 - 0.445ms returns 0
T7CAC 000:510.709 JLINK_CORESIGHT_ReadAPDPReg(AP reg 0x03)
T7CAC 000:511.222   Value=0x73020081
T7CAC 000:511.234 - 0.525ms returns 0
T7CAC 000:511.243 JLINK_CORESIGHT_WriteAPDPReg(AP reg 0x00, 0x80000002)
T7CAC 000:511.716 - 0.472ms returns 0
T7CAC 000:511.729 JLINK_CORESIGHT_WriteAPDPReg(AP reg 0x01, 0x80011140)
T7CAC 000:512.168 - 0.439ms returns 0
T7CAC 000:512.182 JLINK_CORESIGHT_ReadAPDPReg(AP reg 0x03)
T7CAC 000:512.686   Value=0x00000000
T7CAC 000:512.699 - 0.517ms returns 0
T7CAC 000:512.742 JLINK_CORESIGHT_WriteAPDPReg(AP reg 0x00, 0x80000002)
T7CAC 000:513.242 - 0.499ms returns 0
T7CAC 000:513.256 JLINK_CORESIGHT_WriteAPDPReg(AP reg 0x01, 0x80011130)
T7CAC 000:513.681 - 0.424ms returns 0
T7CAC 000:513.696 JLINK_CORESIGHT_ReadAPDPReg(AP reg 0x03)
T7CAC 000:514.225   Value=0x00038902
T7CAC 000:514.240 - 0.544ms returns 0
T7CAC 000:514.253 JLINK_CORESIGHT_WriteAPDPReg(AP reg 0x00, 0x80000002)
T7CAC 000:514.702 - 0.449ms returns 0
T7CAC 000:514.717 JLINK_CORESIGHT_WriteAPDPReg(AP reg 0x01, 0x80011140)
T7CAC 000:515.092 - 0.375ms returns 0
T7CAC 000:515.108 JLINK_CORESIGHT_ReadAPDPReg(AP reg 0x03)
T7CAC 000:515.737   Value=0x00000002
T7CAC 000:515.751 - 0.643ms returns 0
T7CAC 000:515.763 JLINK_CORESIGHT_WriteAPDPReg(AP reg 0x00, 0x80000002)
T7CAC 000:516.205 - 0.441ms returns 0
T7CAC 000:516.221 JLINK_CORESIGHT_WriteAPDPReg(AP reg 0x01, 0x80011120)
T7CAC 000:516.681 - 0.459ms returns 0
T7CAC 000:516.696 JLINK_CORESIGHT_WriteAPDPReg(AP reg 0x03, 0x75010001)
T7CAC 000:517.172 - 0.475ms returns 0
T7CAC 000:517.187 JLINK_CORESIGHT_WriteAPDPReg(AP reg 0x00, 0x80000002)
T7CAC 000:517.568 - 0.381ms returns 0
T7CAC 000:517.583 JLINK_CORESIGHT_WriteAPDPReg(AP reg 0x01, 0x80011140)
T7CAC 000:518.116 - 0.532ms returns 0
T7CAC 000:518.132 JLINK_CORESIGHT_ReadAPDPReg(AP reg 0x03)
T7CAC 000:518.651   Value=0x00000002
T7CAC 000:518.664 - 0.531ms returns 0
T7CAC 000:518.674 JLINK_CORESIGHT_WriteAPDPReg(AP reg 0x00, 0x80000002)
T7CAC 000:519.191 - 0.517ms returns 0
T7CAC 000:519.204 JLINK_CORESIGHT_WriteAPDPReg(AP reg 0x01, 0x80011120)
T7CAC 000:519.670 - 0.465ms returns 0
T7CAC 000:519.712 JLINK_CORESIGHT_WriteAPDPReg(AP reg 0x03, 0x0000038A)
T7CAC 000:520.160 - 0.448ms returns 0
T7CAC 000:520.174 JLINK_CORESIGHT_WriteAPDPReg(AP reg 0x00, 0x80000002)
T7CAC 000:520.616 - 0.441ms returns 0
T7CAC 000:520.652 JLINK_CORESIGHT_WriteAPDPReg(AP reg 0x01, 0x80011140)
T7CAC 000:521.171 - 0.518ms returns 0
T7CAC 000:521.184 JLINK_CORESIGHT_ReadAPDPReg(AP reg 0x03)
T7CAC 000:521.681   Value=0x00000002
T7CAC 000:521.696 - 0.511ms returns 0
T7CAC 000:521.706 JLINK_CORESIGHT_ReadAPDPReg(AP reg 0x03)
T7CAC 000:522.213   Value=0x00000002
T7CAC 000:522.225 - 0.519ms returns 0
T7CAC 000:522.235 JLINK_CORESIGHT_ReadAPDPReg(AP reg 0x03)
T7CAC 000:522.724   Value=0x00000002
T7CAC 000:522.736 - 0.501ms returns 0
T7CAC 000:522.745 JLINK_CORESIGHT_ReadAPDPReg(AP reg 0x03)
T7CAC 000:523.212   Value=0x00000002
T7CAC 000:523.224 - 0.478ms returns 0
T7CAC 000:523.233 JLINK_CORESIGHT_ReadAPDPReg(AP reg 0x03)
T7CAC 000:523.792   Value=0x00000000
T7CAC 000:523.807 - 0.573ms returns 0
T7CAC 000:523.817 JLINK_CORESIGHT_WriteAPDPReg(AP reg 0x00, 0x80000002)
T7CAC 000:524.294 - 0.477ms returns 0
T7CAC 000:524.308 JLINK_CORESIGHT_WriteAPDPReg(AP reg 0x01, 0x80011130)
T7CAC 000:524.704 - 0.396ms returns 0
T7CAC 000:524.717 JLINK_CORESIGHT_ReadAPDPReg(AP reg 0x03)
T7CAC 000:525.221   Value=0x75020081
T7CAC 000:525.233 - 0.516ms returns 0
T7CAC 000:525.242 JLINK_CORESIGHT_WriteAPDPReg(AP reg 0x00, 0x80000002)
T7CAC 000:525.721 - 0.478ms returns 0
T7CAC 000:525.741 JLINK_CORESIGHT_WriteAPDPReg(AP reg 0x01, 0x80011140)
T7CAC 000:526.168 - 0.427ms returns 0
T7CAC 000:526.185 JLINK_CORESIGHT_ReadAPDPReg(AP reg 0x03)
T7CAC 000:526.663   Value=0x00000000
T7CAC 000:526.676 - 0.490ms returns 0
T7CAC 000:526.689 JLINK_CORESIGHT_WriteAPDPReg(AP reg 0x00, 0x80000002)
T7CAC 000:527.192 - 0.503ms returns 0
T7CAC 000:527.208 JLINK_CORESIGHT_WriteAPDPReg(AP reg 0x01, 0x80011130)
T7CAC 000:527.672 - 0.463ms returns 0
T7CAC 000:527.689 JLINK_CORESIGHT_ReadAPDPReg(AP reg 0x03)
T7CAC 000:528.251   Value=0x00038702
T7CAC 000:528.263 - 0.574ms returns 0
T7CAC 000:528.338 JLINK_CORESIGHT_WriteAPDPReg(AP reg 0x00, 0x80000002)
T7CAC 000:528.823 - 0.485ms returns 0
T7CAC 000:528.837 JLINK_CORESIGHT_WriteAPDPReg(AP reg 0x01, 0x80011140)
T7CAC 000:529.328 - 0.491ms returns 0
T7CAC 000:529.341 JLINK_CORESIGHT_ReadAPDPReg(AP reg 0x03)
T7CAC 000:529.835   Value=0x00000002
T7CAC 000:529.848 - 0.507ms returns 0
T7CAC 000:529.858 JLINK_CORESIGHT_WriteAPDPReg(AP reg 0x00, 0x80000002)
T7CAC 000:530.306 - 0.448ms returns 0
T7CAC 000:530.320 JLINK_CORESIGHT_WriteAPDPReg(AP reg 0x01, 0x80011120)
T7CAC 000:530.776 - 0.456ms returns 0
T7CAC 000:530.792 JLINK_CORESIGHT_WriteAPDPReg(AP reg 0x03, 0x4E0B0001)
T7CAC 000:531.217 - 0.425ms returns 0
T7CAC 000:531.231 JLINK_CORESIGHT_WriteAPDPReg(AP reg 0x00, 0x80000002)
T7CAC 000:531.682 - 0.450ms returns 0
T7CAC 000:531.701 JLINK_CORESIGHT_WriteAPDPReg(AP reg 0x01, 0x80011140)
T7CAC 000:532.204 - 0.503ms returns 0
T7CAC 000:532.217 JLINK_CORESIGHT_ReadAPDPReg(AP reg 0x03)
T7CAC 000:532.713   Value=0x00000002
T7CAC 000:532.726 - 0.509ms returns 0
T7CAC 000:532.737 JLINK_CORESIGHT_WriteAPDPReg(AP reg 0x00, 0x80000002)
T7CAC 000:533.186 - 0.449ms returns 0
T7CAC 000:533.201 JLINK_CORESIGHT_WriteAPDPReg(AP reg 0x01, 0x80011120)
T7CAC 000:533.650 - 0.449ms returns 0
T7CAC 000:533.664 JLINK_CORESIGHT_WriteAPDPReg(AP reg 0x03, 0x40000000)
T7CAC 000:534.110 - 0.446ms returns 0
T7CAC 000:534.124 JLINK_CORESIGHT_WriteAPDPReg(AP reg 0x00, 0x80000002)
T7CAC 000:534.545 - 0.421ms returns 0
T7CAC 000:534.558 JLINK_CORESIGHT_WriteAPDPReg(AP reg 0x01, 0x80011140)
T7CAC 000:535.056 - 0.497ms returns 0
T7CAC 000:535.070 JLINK_CORESIGHT_ReadAPDPReg(AP reg 0x03)
T7CAC 000:535.569   Value=0x00000002
T7CAC 000:535.581 - 0.511ms returns 0
T7CAC 000:535.591 JLINK_CORESIGHT_WriteAPDPReg(AP reg 0x00, 0x80000002)
T7CAC 000:536.081 - 0.490ms returns 0
T7CAC 000:536.095 JLINK_CORESIGHT_WriteAPDPReg(AP reg 0x01, 0x80011120)
T7CAC 000:536.509 - 0.414ms returns 0
T7CAC 000:536.523 JLINK_CORESIGHT_WriteAPDPReg(AP reg 0x03, 0x00000000)
T7CAC 000:536.930 - 0.408ms returns 0
T7CAC 000:536.944 JLINK_CORESIGHT_WriteAPDPReg(AP reg 0x00, 0x80000002)
T7CAC 000:537.407 - 0.463ms returns 0
T7CAC 000:537.421 JLINK_CORESIGHT_WriteAPDPReg(AP reg 0x01, 0x80011140)
T7CAC 000:537.864 - 0.443ms returns 0
T7CAC 000:537.877 JLINK_CORESIGHT_ReadAPDPReg(AP reg 0x03)
T7CAC 000:538.339   Value=0x00000002
T7CAC 000:538.352 - 0.474ms returns 0
T7CAC 000:538.362 JLINK_CORESIGHT_WriteAPDPReg(AP reg 0x00, 0x80000002)
T7CAC 000:538.845 - 0.483ms returns 0
T7CAC 000:538.861 JLINK_CORESIGHT_WriteAPDPReg(AP reg 0x01, 0x80011120)
T7CAC 000:539.320 - 0.459ms returns 0
T7CAC 000:539.334 JLINK_CORESIGHT_WriteAPDPReg(AP reg 0x03, 0x03670000)
T7CAC 000:539.738 - 0.404ms returns 0
T7CAC 000:539.751 JLINK_CORESIGHT_WriteAPDPReg(AP reg 0x00, 0x80000002)
T7CAC 000:540.195 - 0.443ms returns 0
T7CAC 000:540.208 JLINK_CORESIGHT_WriteAPDPReg(AP reg 0x01, 0x80011140)
T7CAC 000:540.608 - 0.400ms returns 0
T7CAC 000:540.623 JLINK_CORESIGHT_ReadAPDPReg(AP reg 0x03)
T7CAC 000:541.089   Value=0x00000002
T7CAC 000:541.103 - 0.480ms returns 0
T7CAC 000:541.113 JLINK_CORESIGHT_ReadAPDPReg(AP reg 0x03)
T7CAC 000:541.652   Value=0x00000002
T7CAC 000:541.665 - 0.551ms returns 0
T7CAC 000:541.675 JLINK_CORESIGHT_ReadAPDPReg(AP reg 0x03)
T7CAC 000:542.212   Value=0x00000002
T7CAC 000:542.225 - 0.550ms returns 0
T7CAC 000:542.234 JLINK_CORESIGHT_ReadAPDPReg(AP reg 0x03)
T7CAC 000:542.710   Value=0x00000002
T7CAC 000:542.724 - 0.490ms returns 0
T7CAC 000:542.734 JLINK_CORESIGHT_ReadAPDPReg(AP reg 0x03)
T7CAC 000:543.273   Value=0x00000002
T7CAC 000:543.286 - 0.551ms returns 0
T7CAC 000:543.296 JLINK_CORESIGHT_ReadAPDPReg(AP reg 0x03)
T7CAC 000:543.741   Value=0x00000002
T7CAC 000:543.755 - 0.459ms returns 0
T7CAC 000:543.765 JLINK_CORESIGHT_ReadAPDPReg(AP reg 0x03)
T7CAC 000:544.240   Value=0x00000002
T7CAC 000:544.253 - 0.487ms returns 0
T7CAC 000:544.262 JLINK_CORESIGHT_ReadAPDPReg(AP reg 0x03)
T7CAC 000:544.780   Value=0x00000002
T7CAC 000:544.792 - 0.530ms returns 0
T7CAC 000:544.802 JLINK_CORESIGHT_ReadAPDPReg(AP reg 0x03)
T7CAC 000:545.301   Value=0x00000002
T7CAC 000:545.314 - 0.511ms returns 0
T7CAC 000:545.324 JLINK_CORESIGHT_ReadAPDPReg(AP reg 0x03)
T7CAC 000:545.890   Value=0x00000002
T7CAC 000:545.903 - 0.579ms returns 0
T7CAC 000:545.913 JLINK_CORESIGHT_ReadAPDPReg(AP reg 0x03)
T7CAC 000:546.406   Value=0x00000002
T7CAC 000:546.419 - 0.506ms returns 0
T7CAC 000:546.429 JLINK_CORESIGHT_ReadAPDPReg(AP reg 0x03)
T7CAC 000:546.918   Value=0x00000002
T7CAC 000:546.931 - 0.501ms returns 0
T7CAC 000:546.940 JLINK_CORESIGHT_ReadAPDPReg(AP reg 0x03)
T7CAC 000:547.440   Value=0x00000000
